
T1EA4 000:321 SEGGER J-Link V4.98b Log File (0000ms, 0271ms total)
T1EA4 000:321 DLL Compiled: Apr 10 2015 20:15:52 (0000ms, 0271ms total)
T1EA4 000:321 Logging started @ 2017-11-03 16:38 (0000ms, 0271ms total)
T1EA4 000:321 JLINK_SetWarnOutHandler(...) (0000ms, 0271ms total)
T1EA4 000:321 JLINK_OpenEx(...)
Firmware: J-Link ARM-OB STM32 compiled Aug 22 2012 19:52:04
Hardware: V7.00
S/N: 20090928
Feature(s): RDI,FlashDL,FlashBP,JFlash,GDBFull  returns O.K. (0268ms, 0539ms total)
T1EA4 000:589 JLINK_SetErrorOutHandler(...) (0000ms, 0539ms total)
T1EA4 000:589 JLINK_ExecCommand("ProjectFile = "D:\ripple\keiluVision_workspace\WaterOut_Alarm\MDK-ARM\JLinkSettings.ini"", ...)Device "UNSPECIFIED" selected.  returns 0x00 (0010ms, 0549ms total)
T1EA4 000:614 JLINK_ExecCommand("Device = STM32L031K6Ux", ...)Device "UNSPECIFIED" selected.  returns 0x00 (0007ms, 0556ms total)
T1EA4 000:621 JLINK_ExecCommand("DisableConnectionTimeout", ...)  returns 0x01 (0000ms, 0556ms total)
T1EA4 000:621 JLINK_GetHardwareVersion()  returns 0x11170 (0000ms, 0556ms total)
T1EA4 000:621 JLINK_GetDLLVersion()  returns 49802 (0000ms, 0556ms total)
T1EA4 000:621 JLINK_GetFirmwareString(...) (0000ms, 0556ms total)
T1EA4 000:634 JLINK_GetDLLVersion()  returns 49802 (0000ms, 0556ms total)
T1EA4 000:634 JLINK_GetCompileDateTime() (0000ms, 0556ms total)
T1EA4 000:636 JLINK_GetFirmwareString(...) (0000ms, 0556ms total)
T1EA4 000:638 JLINK_GetHardwareVersion()  returns 0x11170 (0000ms, 0556ms total)
T1EA4 000:647 JLINK_TIF_Select(JLINKARM_TIF_SWD)  returns 0x00 (0001ms, 0557ms total)
T1EA4 000:648 JLINK_SetSpeed(5000) (0000ms, 0557ms total)
T1EA4 000:648 JLINK_GetId() >0x108 TIF>Found SWD-DP with ID 0x0BC11477 >0x0D TIF> >0x21 TIF> >0x0D TIF> >0x28 TIF> >0x0D TIF> >0x28 TIF> >0x0D TIF> >0x21 TIF> >0x0D TIF> >0x28 TIF> >0x0D TIF> >0x21 TIF> >0x0D TIF> >0x21 TIF> >0x0D TIF> >0x21 TIF> >0x0D TIF> >0x28 TIF> >0x0D TIF> >0x28 TIF> >0x0D TIF> >0x28 TIF> >0x0D TIF> >0x21 TIF> >0x0D TIF> >0x21 TIF> >0x0D TIF> >0x21 TIF> >0x0D TIF> >0x28 TIF> >0x0D TIF> >0x28 TIF> >0x0D TIF> >0x21 TIF> >0x0D TIF> >0x28 TIF> >0x0D TIF> >0x28 TIF> >0x0D TIF>
 >0x28 TIF> >0x0D TIF> >0x21 TIF> >0x0D TIF> >0x21 TIF> >0x0D TIF> >0x28 TIF> >0x0D TIF> >0x21 TIF> >0x0D TIF> >0x21 TIF>Found Cortex-M0 r0p1, Little endian. -- CPU_WriteMem(4 bytes @ 0xE0002000) -- CPU_ReadMem(4 bytes @ 0xE000EDF0) -- CPU_ReadMem(4 bytes @ 0xE0002000)FPUnit: 4 code (BP) slots and 0 literal slots -- CPU_ReadMem(4 bytes @ 0xE000EDFC) -- CPU_ReadMem(4 bytes @ 0xE0001000) -- CPU_WriteMem(4 bytes @ 0xE0001000)CoreSight components:ROMTbl 0 @ F0000000 -- CPU_ReadMem(16 bytes @ 0xF0000000)
 -- CPU_ReadMem(16 bytes @ 0xE00FFFF0) -- CPU_ReadMem(16 bytes @ 0xE00FFFE0)ROMTbl 0 [0]: F00FF000, CID: B105100D, PID: 000BB4C0 ROM TableROMTbl 1 @ E00FF000 -- CPU_ReadMem(16 bytes @ 0xE00FF000) -- CPU_ReadMem(16 bytes @ 0xE000EFF0) -- CPU_ReadMem(16 bytes @ 0xE000EFE0)ROMTbl 1 [0]: FFF0F000, CID: B105E00D, PID: 000BB008 SCS -- CPU_ReadMem(16 bytes @ 0xE0001FF0) -- CPU_ReadMem(16 bytes @ 0xE0001FE0)ROMTbl 1 [1]: FFF02000, CID: B105E00D, PID: 000BB00A DWT -- CPU_ReadMem(16 bytes @ 0xE0002FF0)
 -- CPU_ReadMem(16 bytes @ 0xE0002FE0)ROMTbl 1 [2]: FFF03000, CID: B105E00D, PID: 000BB00B FPB >0x0D TIF> >0x21 TIF>  returns 0x0BC11477 (0061ms, 0618ms total)
T1EA4 000:709 JLINK_GetDLLVersion()  returns 49802 (0000ms, 0618ms total)
T1EA4 000:709 JLINK_CORE_GetFound()  returns 0x60000FF (0000ms, 0618ms total)
T1EA4 000:709 JLINK_GetDebugInfo(0x100) -- Value=0xF0000003  returns 0x00 (0000ms, 0618ms total)
T1EA4 000:711 JLINK_ReadMem (0xF0000000, 0x0020 Bytes, ...) -- CPU is running -- CPU_ReadMem(32 bytes @ 0xF0000000) - Data: 03 F0 0F F0 02 00 20 00 00 00 00 00 00 00 00 00 ...  returns 0x00 (0001ms, 0619ms total)
T1EA4 000:712 JLINK_ReadMem (0xE00FFFF0, 0x0010 Bytes, ...) -- CPU is running -- CPU_ReadMem(16 bytes @ 0xE00FFFF0) - Data: 0D 00 00 00 10 00 00 00 05 00 00 00 B1 00 00 00  returns 0x00 (0001ms, 0620ms total)
T1EA4 000:713 JLINK_ReadMem (0xE00FFFD0, 0x0020 Bytes, ...) -- CPU is running -- CPU_ReadMem(32 bytes @ 0xE00FFFD0) - Data: 04 00 00 00 00 00 00 00 00 00 00 00 00 00 00 00 ...  returns 0x00 (0001ms, 0621ms total)
T1EA4 000:714 JLINK_ReadMem (0xE00FF000, 0x0020 Bytes, ...) -- CPU is running -- CPU_ReadMem(32 bytes @ 0xE00FF000) - Data: 03 F0 F0 FF 03 20 F0 FF 03 30 F0 FF 00 00 00 00 ...  returns 0x00 (0001ms, 0622ms total)
T1EA4 000:715 JLINK_ReadMem (0xE000EFF0, 0x0010 Bytes, ...) -- CPU is running -- CPU_ReadMem(16 bytes @ 0xE000EFF0) - Data: 0D 00 00 00 E0 00 00 00 05 00 00 00 B1 00 00 00  returns 0x00 (0001ms, 0623ms total)
T1EA4 000:716 JLINK_ReadMem (0xE000EFD0, 0x0020 Bytes, ...) -- CPU is running -- CPU_ReadMem(32 bytes @ 0xE000EFD0) - Data: 04 00 00 00 00 00 00 00 00 00 00 00 00 00 00 00 ...  returns 0x00 (0001ms, 0624ms total)
T1EA4 000:717 JLINK_ReadMem (0xE0001FF0, 0x0010 Bytes, ...) -- CPU is running -- CPU_ReadMem(16 bytes @ 0xE0001FF0) - Data: 0D 00 00 00 E0 00 00 00 05 00 00 00 B1 00 00 00  returns 0x00 (0001ms, 0625ms total)
T1EA4 000:718 JLINK_ReadMem (0xE0001FD0, 0x0020 Bytes, ...) -- CPU is running -- CPU_ReadMem(32 bytes @ 0xE0001FD0) - Data: 04 00 00 00 00 00 00 00 00 00 00 00 00 00 00 00 ...  returns 0x00 (0001ms, 0626ms total)
T1EA4 000:719 JLINK_ReadMem (0xE0002FF0, 0x0010 Bytes, ...) -- CPU is running -- CPU_ReadMem(16 bytes @ 0xE0002FF0) - Data: 0D 00 00 00 E0 00 00 00 05 00 00 00 B1 00 00 00  returns 0x00 (0001ms, 0627ms total)
T1EA4 000:720 JLINK_ReadMem (0xE0002FD0, 0x0020 Bytes, ...) -- CPU is running -- CPU_ReadMem(32 bytes @ 0xE0002FD0) - Data: 04 00 00 00 00 00 00 00 00 00 00 00 00 00 00 00 ...  returns 0x00 (0001ms, 0628ms total)
T1EA4 000:721 JLINK_ReadMemU32(0xE000ED00, 0x0001 Items, ...) -- CPU is running -- CPU_ReadMem(4 bytes @ 0xE000ED00) - Data: 01 C6 0C 41  returns 0x01 (0001ms, 0629ms total)
T1EA4 000:722 JLINK_SetResetType(JLINKARM_RESET_TYPE_NORMAL)  returns JLINKARM_RESET_TYPE_NORMAL (0000ms, 0629ms total)
T1EA4 000:722 JLINK_Reset() -- CPU is running -- CPU_WriteMem(4 bytes @ 0xE000EDF0) -- CPU is running -- CPU_WriteMem(4 bytes @ 0xE000EDFC) >0x35 TIF> -- CPU is running -- CPU_WriteMem(4 bytes @ 0xE000ED0C) -- CPU is running -- CPU_ReadMem(4 bytes @ 0xE000EDF0) -- CPU is running -- CPU_ReadMem(4 bytes @ 0xE000EDF0) -- CPU is running -- CPU_WriteMem(4 bytes @ 0xE000EDF0) -- CPU is running -- CPU_WriteMem(4 bytes @ 0xE000EDFC) -- CPU is running -- CPU_ReadMem(4 bytes @ 0xE000EDF0)
 -- CPU_WriteMem(4 bytes @ 0xE0002000) -- CPU_ReadMem(4 bytes @ 0xE000EDFC) -- CPU_ReadMem(4 bytes @ 0xE0001000) -- CPU_WriteMem(4 bytes @ 0xE0001000) (0022ms, 0651ms total)
T1EA4 000:744 JLINK_Halt()  returns 0x00 (0000ms, 0651ms total)
T1EA4 000:744 JLINK_IsHalted()  returns TRUE (0000ms, 0651ms total)
T1EA4 000:744 JLINK_ReadMemU32(0xE000EDF0, 0x0001 Items, ...) -- CPU_ReadMem(4 bytes @ 0xE000EDF0) - Data: 03 00 03 01  returns 0x01 (0001ms, 0652ms total)
T1EA4 000:745 JLINK_WriteU32(0xE000EDF0, 0xA05F0003) -- CPU_WriteMem(4 bytes @ 0xE000EDF0)  returns 0x00 (0001ms, 0653ms total)
T1EA4 000:746 JLINK_WriteU32(0xE000EDFC, 0x01000000) -- CPU_WriteMem(4 bytes @ 0xE000EDFC)  returns 0x00 (0001ms, 0654ms total)
T1EA4 000:762 JLINK_GetHWStatus(...)  returns 0x00 (0000ms, 0654ms total)
T1EA4 000:773 JLINK_GetNumBPUnits(Type = 0xFFFFFF00)  returns 0x04 (0000ms, 0654ms total)
T1EA4 000:773 JLINK_GetNumBPUnits(Type = 0xF0)  returns 0x2000 (0000ms, 0654ms total)
T1EA4 000:773 JLINK_GetNumWPUnits()  returns 0x02 (0000ms, 0654ms total)
T1EA4 000:780 JLINK_GetSpeed()  returns 0xFA0 (0000ms, 0654ms total)
T1EA4 000:784 JLINK_ReadMemU32(0xE000E004, 0x0001 Items, ...) -- CPU_ReadMem(4 bytes @ 0xE000E004) - Data: 00 00 00 00  returns 0x01 (0001ms, 0655ms total)
T1EA4 000:785 JLINK_Halt()  returns 0x00 (0000ms, 0655ms total)
T1EA4 000:785 JLINK_IsHalted()  returns TRUE (0000ms, 0655ms total)
T1EA4 000:787 JLINK_WriteMem(0x20000000, 0x0140 Bytes, ...) - Data: 00 BE 0A E0 0D 78 2D 06 68 40 08 24 40 00 00 D3 ... -- CPU_WriteMem(320 bytes @ 0x20000000)  returns 0x140 (0005ms, 0660ms total)
T1EA4 000:792 JLINK_WriteReg(R0, 0x08000000)  returns 0x00 (0000ms, 0660ms total)
T1EA4 000:792 JLINK_WriteReg(R1, 0x001FFF67)  returns 0x00 (0000ms, 0660ms total)
T1EA4 000:792 JLINK_WriteReg(R2, 0x00000001)  returns 0x00 (0000ms, 0660ms total)
T1EA4 000:792 JLINK_WriteReg(R3, 0x00000000)  returns 0x00 (0000ms, 0660ms total)
T1EA4 000:792 JLINK_WriteReg(R4, 0x00000000)  returns 0x00 (0000ms, 0660ms total)
T1EA4 000:792 JLINK_WriteReg(R5, 0x00000000)  returns 0x00 (0000ms, 0660ms total)
T1EA4 000:792 JLINK_WriteReg(R6, 0x00000000)  returns 0x00 (0000ms, 0660ms total)
T1EA4 000:792 JLINK_WriteReg(R7, 0x00000000)  returns 0x00 (0000ms, 0660ms total)
T1EA4 000:792 JLINK_WriteReg(R8, 0x00000000)  returns 0x00 (0000ms, 0660ms total)
T1EA4 000:792 JLINK_WriteReg(R9, 0x2000013C)  returns 0x00 (0000ms, 0660ms total)
T1EA4 000:792 JLINK_WriteReg(R10, 0x00000000)  returns 0x00 (0000ms, 0660ms total)
T1EA4 000:792 JLINK_WriteReg(R11, 0x00000000)  returns 0x00 (0000ms, 0660ms total)
T1EA4 000:792 JLINK_WriteReg(R12, 0x00000000)  returns 0x00 (0000ms, 0660ms total)
T1EA4 000:792 JLINK_WriteReg(R13 (SP), 0x20001000)  returns 0x00 (0000ms, 0660ms total)
T1EA4 000:792 JLINK_WriteReg(R14, 0x20000001)  returns 0x00 (0000ms, 0660ms total)
T1EA4 000:792 JLINK_WriteReg(R15 (PC), 0x20000020)  returns 0x00 (0000ms, 0660ms total)
T1EA4 000:792 JLINK_WriteReg(XPSR, 0x01000000)  returns 0x00 (0000ms, 0660ms total)
T1EA4 000:792 JLINK_WriteReg(MSP, 0x20001000)  returns 0x00 (0000ms, 0660ms total)
T1EA4 000:792 JLINK_WriteReg(PSP, 0x20001000)  returns 0x00 (0000ms, 0660ms total)
T1EA4 000:792 JLINK_WriteReg(CFBP, 0x00000000)  returns 0x00 (0000ms, 0660ms total)
T1EA4 000:792 JLINK_SetBPEx(Addr = 0x20000000, Type = 0xFFFFFFF2) -- CPU_ReadMem(4 bytes @ 0x20000000) -- CPU_WriteMem(4 bytes @ 0x20000000) -- CPU_ReadMem(4 bytes @ 0x20000000) -- CPU_WriteMem(4 bytes @ 0x20000000) -- CPU_ReadMem(2 bytes @ 0x20000000)  returns 0x00000001 (0004ms, 0664ms total)
T1EA4 000:796 JLINK_Go() -- CPU_WriteMem(2 bytes @ 0x20000000) -- CPU_ReadMem(4 bytes @ 0xE0001000) -- CPU_WriteMem(4 bytes @ 0xE0001000) -- CPU_WriteMem(4 bytes @ 0xE0002008) -- CPU_WriteMem(4 bytes @ 0xE000200C) -- CPU_WriteMem(4 bytes @ 0xE0002010) -- CPU_WriteMem(4 bytes @ 0xE0002014) -- CPU_WriteMem(4 bytes @ 0xE0001004) (0009ms, 0673ms total)
T1EA4 000:805 JLINK_IsHalted() -- CPU_ReadMem(2 bytes @ 0x20000000)  returns TRUE (0004ms, 0677ms total)
T1EA4 000:809 JLINK_ReadReg(R15 (PC))  returns 0x20000000 (0000ms, 0673ms total)
T1EA4 000:809 JLINK_ClrBPEx(BPHandle = 0x00000001)  returns 0x00 (0000ms, 0673ms total)
T1EA4 000:809 JLINK_ReadReg(R0)  returns 0x00000000 (0000ms, 0673ms total)
T1EA4 000:810 JLINK_WriteReg(R0, 0x08000000)  returns 0x00 (0000ms, 0673ms total)
T1EA4 000:810 JLINK_WriteReg(R1, 0x00000080)  returns 0x00 (0000ms, 0673ms total)
T1EA4 000:810 JLINK_WriteReg(R2, 0x00000000)  returns 0x00 (0000ms, 0673ms total)
T1EA4 000:810 JLINK_WriteReg(R3, 0x00000000)  returns 0x00 (0000ms, 0673ms total)
T1EA4 000:810 JLINK_WriteReg(R4, 0x00000000)  returns 0x00 (0000ms, 0673ms total)
T1EA4 000:810 JLINK_WriteReg(R5, 0x00000000)  returns 0x00 (0000ms, 0673ms total)
T1EA4 000:810 JLINK_WriteReg(R6, 0x00000000)  returns 0x00 (0000ms, 0673ms total)
T1EA4 000:810 JLINK_WriteReg(R7, 0x00000000)  returns 0x00 (0000ms, 0673ms total)
T1EA4 000:810 JLINK_WriteReg(R8, 0x00000000)  returns 0x00 (0000ms, 0673ms total)
T1EA4 000:810 JLINK_WriteReg(R9, 0x2000013C)  returns 0x00 (0000ms, 0673ms total)
T1EA4 000:810 JLINK_WriteReg(R10, 0x00000000)  returns 0x00 (0000ms, 0673ms total)
T1EA4 000:810 JLINK_WriteReg(R11, 0x00000000)  returns 0x00 (0000ms, 0673ms total)
T1EA4 000:810 JLINK_WriteReg(R12, 0x00000000)  returns 0x00 (0000ms, 0673ms total)
T1EA4 000:810 JLINK_WriteReg(R13 (SP), 0x20001000)  returns 0x00 (0000ms, 0673ms total)
T1EA4 000:810 JLINK_WriteReg(R14, 0x20000001)  returns 0x00 (0000ms, 0673ms total)
T1EA4 000:810 JLINK_WriteReg(R15 (PC), 0x200000B0)  returns 0x00 (0000ms, 0673ms total)
T1EA4 000:810 JLINK_WriteReg(XPSR, 0x01000000)  returns 0x00 (0000ms, 0673ms total)
T1EA4 000:810 JLINK_WriteReg(MSP, 0x20001000)  returns 0x00 (0000ms, 0673ms total)
T1EA4 000:810 JLINK_WriteReg(PSP, 0x20001000)  returns 0x00 (0000ms, 0673ms total)
T1EA4 000:810 JLINK_WriteReg(CFBP, 0x00000000)  returns 0x00 (0000ms, 0673ms total)
T1EA4 000:810 JLINK_SetBPEx(Addr = 0x20000000, Type = 0xFFFFFFF2)  returns 0x00000002 (0000ms, 0673ms total)
T1EA4 000:810 JLINK_Go() -- CPU_ReadMem(4 bytes @ 0xE0001000) -- CPU_WriteMem(4 bytes @ 0xE0001000) (0004ms, 0677ms total)
T1EA4 000:814 JLINK_IsHalted() -- CPU_ReadMem(2 bytes @ 0x20000000)  returns TRUE (0004ms, 0681ms total)
T1EA4 000:818 JLINK_ReadReg(R15 (PC))  returns 0x20000000 (0000ms, 0677ms total)
T1EA4 000:818 JLINK_ClrBPEx(BPHandle = 0x00000002)  returns 0x00 (0000ms, 0677ms total)
T1EA4 000:818 JLINK_ReadReg(R0)  returns 0x00000001 (0000ms, 0677ms total)
T1EA4 000:818 JLINK_WriteReg(R0, 0x08000000)  returns 0x00 (0000ms, 0677ms total)
T1EA4 000:818 JLINK_WriteReg(R1, 0x00000080)  returns 0x00 (0000ms, 0677ms total)
T1EA4 000:818 JLINK_WriteReg(R2, 0x00000000)  returns 0x00 (0000ms, 0677ms total)
T1EA4 000:818 JLINK_WriteReg(R3, 0x00000000)  returns 0x00 (0000ms, 0677ms total)
T1EA4 000:818 JLINK_WriteReg(R4, 0x00000000)  returns 0x00 (0001ms, 0678ms total)
T1EA4 000:819 JLINK_WriteReg(R5, 0x00000000)  returns 0x00 (0000ms, 0678ms total)
T1EA4 000:819 JLINK_WriteReg(R6, 0x00000000)  returns 0x00 (0000ms, 0678ms total)
T1EA4 000:819 JLINK_WriteReg(R7, 0x00000000)  returns 0x00 (0000ms, 0678ms total)
T1EA4 000:819 JLINK_WriteReg(R8, 0x00000000)  returns 0x00 (0000ms, 0678ms total)
T1EA4 000:819 JLINK_WriteReg(R9, 0x2000013C)  returns 0x00 (0000ms, 0678ms total)
T1EA4 000:819 JLINK_WriteReg(R10, 0x00000000)  returns 0x00 (0000ms, 0678ms total)
T1EA4 000:819 JLINK_WriteReg(R11, 0x00000000)  returns 0x00 (0000ms, 0678ms total)
T1EA4 000:819 JLINK_WriteReg(R12, 0x00000000)  returns 0x00 (0000ms, 0678ms total)
T1EA4 000:819 JLINK_WriteReg(R13 (SP), 0x20001000)  returns 0x00 (0000ms, 0678ms total)
T1EA4 000:819 JLINK_WriteReg(R14, 0x20000001)  returns 0x00 (0000ms, 0678ms total)
T1EA4 000:819 JLINK_WriteReg(R15 (PC), 0x2000007A)  returns 0x00 (0000ms, 0678ms total)
T1EA4 000:819 JLINK_WriteReg(XPSR, 0x01000000)  returns 0x00 (0000ms, 0678ms total)
T1EA4 000:819 JLINK_WriteReg(MSP, 0x20001000)  returns 0x00 (0000ms, 0678ms total)
T1EA4 000:819 JLINK_WriteReg(PSP, 0x20001000)  returns 0x00 (0000ms, 0678ms total)
T1EA4 000:819 JLINK_WriteReg(CFBP, 0x00000000)  returns 0x00 (0000ms, 0678ms total)
T1EA4 000:819 JLINK_SetBPEx(Addr = 0x20000000, Type = 0xFFFFFFF2)  returns 0x00000003 (0000ms, 0678ms total)
T1EA4 000:819 JLINK_Go() -- CPU_ReadMem(4 bytes @ 0xE0001000) -- CPU_WriteMem(4 bytes @ 0xE0001000) (0003ms, 0681ms total)
T1EA4 000:822 JLINK_IsHalted()  returns FALSE (0001ms, 0682ms total)
T1EA4 000:857 JLINK_IsHalted() -- CPU_ReadMem(2 bytes @ 0x20000000)  returns TRUE (0005ms, 0686ms total)
T1EA4 000:862 JLINK_ReadReg(R15 (PC))  returns 0x20000000 (0000ms, 0681ms total)
T1EA4 000:862 JLINK_ClrBPEx(BPHandle = 0x00000003)  returns 0x00 (0000ms, 0681ms total)
T1EA4 000:862 JLINK_ReadReg(R0)  returns 0x00000000 (0000ms, 0681ms total)
T1EA4 000:862 JLINK_WriteReg(R0, 0x08000080)  returns 0x00 (0000ms, 0681ms total)
T1EA4 000:862 JLINK_WriteReg(R1, 0x00000080)  returns 0x00 (0000ms, 0681ms total)
T1EA4 000:862 JLINK_WriteReg(R2, 0x00000000)  returns 0x00 (0000ms, 0681ms total)
T1EA4 000:862 JLINK_WriteReg(R3, 0x00000000)  returns 0x00 (0000ms, 0681ms total)
T1EA4 000:862 JLINK_WriteReg(R4, 0x00000000)  returns 0x00 (0000ms, 0681ms total)
T1EA4 000:862 JLINK_WriteReg(R5, 0x00000000)  returns 0x00 (0000ms, 0681ms total)
T1EA4 000:862 JLINK_WriteReg(R6, 0x00000000)  returns 0x00 (0000ms, 0681ms total)
T1EA4 000:862 JLINK_WriteReg(R7, 0x00000000)  returns 0x00 (0000ms, 0681ms total)
T1EA4 000:862 JLINK_WriteReg(R8, 0x00000000)  returns 0x00 (0000ms, 0681ms total)
T1EA4 000:862 JLINK_WriteReg(R9, 0x2000013C)  returns 0x00 (0000ms, 0681ms total)
T1EA4 000:862 JLINK_WriteReg(R10, 0x00000000)  returns 0x00 (0000ms, 0681ms total)
T1EA4 000:862 JLINK_WriteReg(R11, 0x00000000)  returns 0x00 (0000ms, 0681ms total)
T1EA4 000:862 JLINK_WriteReg(R12, 0x00000000)  returns 0x00 (0000ms, 0681ms total)
T1EA4 000:862 JLINK_WriteReg(R13 (SP), 0x20001000)  returns 0x00 (0000ms, 0681ms total)
T1EA4 000:862 JLINK_WriteReg(R14, 0x20000001)  returns 0x00 (0000ms, 0681ms total)
T1EA4 000:862 JLINK_WriteReg(R15 (PC), 0x200000B0)  returns 0x00 (0000ms, 0681ms total)
T1EA4 000:862 JLINK_WriteReg(XPSR, 0x01000000)  returns 0x00 (0000ms, 0681ms total)
T1EA4 000:862 JLINK_WriteReg(MSP, 0x20001000)  returns 0x00 (0000ms, 0681ms total)
T1EA4 000:862 JLINK_WriteReg(PSP, 0x20001000)  returns 0x00 (0000ms, 0681ms total)
T1EA4 000:862 JLINK_WriteReg(CFBP, 0x00000000)  returns 0x00 (0000ms, 0681ms total)
T1EA4 000:862 JLINK_SetBPEx(Addr = 0x20000000, Type = 0xFFFFFFF2)  returns 0x00000004 (0000ms, 0681ms total)
T1EA4 000:862 JLINK_Go() -- CPU_ReadMem(4 bytes @ 0xE0001000) -- CPU_WriteMem(4 bytes @ 0xE0001000) (0004ms, 0685ms total)
T1EA4 000:866 JLINK_IsHalted() -- CPU_ReadMem(2 bytes @ 0x20000000)  returns TRUE (0005ms, 0690ms total)
T1EA4 000:871 JLINK_ReadReg(R15 (PC))  returns 0x20000000 (0000ms, 0685ms total)
T1EA4 000:871 JLINK_ClrBPEx(BPHandle = 0x00000004)  returns 0x00 (0000ms, 0685ms total)
T1EA4 000:871 JLINK_ReadReg(R0)  returns 0x00000001 (0000ms, 0685ms total)
T1EA4 000:871 JLINK_WriteReg(R0, 0x08000080)  returns 0x00 (0000ms, 0685ms total)
T1EA4 000:871 JLINK_WriteReg(R1, 0x00000080)  returns 0x00 (0000ms, 0685ms total)
T1EA4 000:871 JLINK_WriteReg(R2, 0x00000000)  returns 0x00 (0000ms, 0685ms total)
T1EA4 000:871 JLINK_WriteReg(R3, 0x00000000)  returns 0x00 (0000ms, 0685ms total)
T1EA4 000:871 JLINK_WriteReg(R4, 0x00000000)  returns 0x00 (0000ms, 0685ms total)
T1EA4 000:871 JLINK_WriteReg(R5, 0x00000000)  returns 0x00 (0000ms, 0685ms total)
T1EA4 000:871 JLINK_WriteReg(R6, 0x00000000)  returns 0x00 (0000ms, 0685ms total)
T1EA4 000:871 JLINK_WriteReg(R7, 0x00000000)  returns 0x00 (0000ms, 0685ms total)
T1EA4 000:871 JLINK_WriteReg(R8, 0x00000000)  returns 0x00 (0000ms, 0685ms total)
T1EA4 000:871 JLINK_WriteReg(R9, 0x2000013C)  returns 0x00 (0000ms, 0685ms total)
T1EA4 000:871 JLINK_WriteReg(R10, 0x00000000)  returns 0x00 (0000ms, 0685ms total)
T1EA4 000:871 JLINK_WriteReg(R11, 0x00000000)  returns 0x00 (0000ms, 0685ms total)
T1EA4 000:871 JLINK_WriteReg(R12, 0x00000000)  returns 0x00 (0000ms, 0685ms total)
T1EA4 000:871 JLINK_WriteReg(R13 (SP), 0x20001000)  returns 0x00 (0000ms, 0685ms total)
T1EA4 000:871 JLINK_WriteReg(R14, 0x20000001)  returns 0x00 (0000ms, 0685ms total)
T1EA4 000:871 JLINK_WriteReg(R15 (PC), 0x2000007A)  returns 0x00 (0000ms, 0685ms total)
T1EA4 000:871 JLINK_WriteReg(XPSR, 0x01000000)  returns 0x00 (0000ms, 0685ms total)
T1EA4 000:871 JLINK_WriteReg(MSP, 0x20001000)  returns 0x00 (0000ms, 0685ms total)
T1EA4 000:871 JLINK_WriteReg(PSP, 0x20001000)  returns 0x00 (0000ms, 0685ms total)
T1EA4 000:871 JLINK_WriteReg(CFBP, 0x00000000)  returns 0x00 (0000ms, 0685ms total)
T1EA4 000:871 JLINK_SetBPEx(Addr = 0x20000000, Type = 0xFFFFFFF2)  returns 0x00000005 (0000ms, 0685ms total)
T1EA4 000:871 JLINK_Go() -- CPU_ReadMem(4 bytes @ 0xE0001000) -- CPU_WriteMem(4 bytes @ 0xE0001000) (0004ms, 0689ms total)
T1EA4 000:875 JLINK_IsHalted()  returns FALSE (0000ms, 0689ms total)
T1EA4 000:876 JLINK_IsHalted()  returns FALSE (0000ms, 0689ms total)
T1EA4 000:877 JLINK_IsHalted()  returns FALSE (0000ms, 0689ms total)
T1EA4 000:878 JLINK_IsHalted() -- CPU_ReadMem(2 bytes @ 0x20000000)  returns TRUE (0004ms, 0693ms total)
T1EA4 000:882 JLINK_ReadReg(R15 (PC))  returns 0x20000000 (0000ms, 0689ms total)
T1EA4 000:882 JLINK_ClrBPEx(BPHandle = 0x00000005)  returns 0x00 (0000ms, 0689ms total)
T1EA4 000:882 JLINK_ReadReg(R0)  returns 0x00000000 (0000ms, 0689ms total)
T1EA4 000:883 JLINK_WriteReg(R0, 0x08000100)  returns 0x00 (0000ms, 0689ms total)
T1EA4 000:883 JLINK_WriteReg(R1, 0x00000080)  returns 0x00 (0000ms, 0689ms total)
T1EA4 000:883 JLINK_WriteReg(R2, 0x00000000)  returns 0x00 (0000ms, 0689ms total)
T1EA4 000:883 JLINK_WriteReg(R3, 0x00000000)  returns 0x00 (0000ms, 0689ms total)
T1EA4 000:883 JLINK_WriteReg(R4, 0x00000000)  returns 0x00 (0000ms, 0689ms total)
T1EA4 000:883 JLINK_WriteReg(R5, 0x00000000)  returns 0x00 (0000ms, 0689ms total)
T1EA4 000:883 JLINK_WriteReg(R6, 0x00000000)  returns 0x00 (0000ms, 0689ms total)
T1EA4 000:883 JLINK_WriteReg(R7, 0x00000000)  returns 0x00 (0000ms, 0689ms total)
T1EA4 000:883 JLINK_WriteReg(R8, 0x00000000)  returns 0x00 (0000ms, 0689ms total)
T1EA4 000:883 JLINK_WriteReg(R9, 0x2000013C)  returns 0x00 (0000ms, 0689ms total)
T1EA4 000:883 JLINK_WriteReg(R10, 0x00000000)  returns 0x00 (0000ms, 0689ms total)
T1EA4 000:883 JLINK_WriteReg(R11, 0x00000000)  returns 0x00 (0000ms, 0689ms total)
T1EA4 000:883 JLINK_WriteReg(R12, 0x00000000)  returns 0x00 (0000ms, 0689ms total)
T1EA4 000:883 JLINK_WriteReg(R13 (SP), 0x20001000)  returns 0x00 (0000ms, 0689ms total)
T1EA4 000:883 JLINK_WriteReg(R14, 0x20000001)  returns 0x00 (0000ms, 0689ms total)
T1EA4 000:883 JLINK_WriteReg(R15 (PC), 0x200000B0)  returns 0x00 (0000ms, 0689ms total)
T1EA4 000:883 JLINK_WriteReg(XPSR, 0x01000000)  returns 0x00 (0000ms, 0689ms total)
T1EA4 000:883 JLINK_WriteReg(MSP, 0x20001000)  returns 0x00 (0000ms, 0689ms total)
T1EA4 000:883 JLINK_WriteReg(PSP, 0x20001000)  returns 0x00 (0000ms, 0689ms total)
T1EA4 000:883 JLINK_WriteReg(CFBP, 0x00000000)  returns 0x00 (0000ms, 0689ms total)
T1EA4 000:883 JLINK_SetBPEx(Addr = 0x20000000, Type = 0xFFFFFFF2)  returns 0x00000006 (0000ms, 0689ms total)
T1EA4 000:883 JLINK_Go() -- CPU_ReadMem(4 bytes @ 0xE0001000) -- CPU_WriteMem(4 bytes @ 0xE0001000) (0004ms, 0693ms total)
T1EA4 000:887 JLINK_IsHalted() -- CPU_ReadMem(2 bytes @ 0x20000000)  returns TRUE (0005ms, 0698ms total)
T1EA4 000:892 JLINK_ReadReg(R15 (PC))  returns 0x20000000 (0000ms, 0693ms total)
T1EA4 000:892 JLINK_ClrBPEx(BPHandle = 0x00000006)  returns 0x00 (0000ms, 0693ms total)
T1EA4 000:892 JLINK_ReadReg(R0)  returns 0x00000001 (0000ms, 0693ms total)
T1EA4 000:892 JLINK_WriteReg(R0, 0x08000100)  returns 0x00 (0000ms, 0693ms total)
T1EA4 000:892 JLINK_WriteReg(R1, 0x00000080)  returns 0x00 (0000ms, 0693ms total)
T1EA4 000:892 JLINK_WriteReg(R2, 0x00000000)  returns 0x00 (0000ms, 0693ms total)
T1EA4 000:892 JLINK_WriteReg(R3, 0x00000000)  returns 0x00 (0000ms, 0693ms total)
T1EA4 000:892 JLINK_WriteReg(R4, 0x00000000)  returns 0x00 (0000ms, 0693ms total)
T1EA4 000:892 JLINK_WriteReg(R5, 0x00000000)  returns 0x00 (0000ms, 0693ms total)
T1EA4 000:892 JLINK_WriteReg(R6, 0x00000000)  returns 0x00 (0000ms, 0693ms total)
T1EA4 000:892 JLINK_WriteReg(R7, 0x00000000)  returns 0x00 (0000ms, 0693ms total)
T1EA4 000:892 JLINK_WriteReg(R8, 0x00000000)  returns 0x00 (0000ms, 0693ms total)
T1EA4 000:892 JLINK_WriteReg(R9, 0x2000013C)  returns 0x00 (0000ms, 0693ms total)
T1EA4 000:892 JLINK_WriteReg(R10, 0x00000000)  returns 0x00 (0000ms, 0693ms total)
T1EA4 000:892 JLINK_WriteReg(R11, 0x00000000)  returns 0x00 (0000ms, 0693ms total)
T1EA4 000:892 JLINK_WriteReg(R12, 0x00000000)  returns 0x00 (0000ms, 0693ms total)
T1EA4 000:892 JLINK_WriteReg(R13 (SP), 0x20001000)  returns 0x00 (0000ms, 0693ms total)
T1EA4 000:892 JLINK_WriteReg(R14, 0x20000001)  returns 0x00 (0000ms, 0693ms total)
T1EA4 000:892 JLINK_WriteReg(R15 (PC), 0x2000007A)  returns 0x00 (0000ms, 0693ms total)
T1EA4 000:892 JLINK_WriteReg(XPSR, 0x01000000)  returns 0x00 (0000ms, 0693ms total)
T1EA4 000:892 JLINK_WriteReg(MSP, 0x20001000)  returns 0x00 (0000ms, 0693ms total)
T1EA4 000:892 JLINK_WriteReg(PSP, 0x20001000)  returns 0x00 (0000ms, 0693ms total)
T1EA4 000:892 JLINK_WriteReg(CFBP, 0x00000000)  returns 0x00 (0000ms, 0693ms total)
T1EA4 000:892 JLINK_SetBPEx(Addr = 0x20000000, Type = 0xFFFFFFF2)  returns 0x00000007 (0000ms, 0693ms total)
T1EA4 000:892 JLINK_Go() -- CPU_ReadMem(4 bytes @ 0xE0001000) -- CPU_WriteMem(4 bytes @ 0xE0001000) (0004ms, 0697ms total)
T1EA4 000:896 JLINK_IsHalted()  returns FALSE (0001ms, 0698ms total)
T1EA4 000:904 JLINK_IsHalted() -- CPU_ReadMem(2 bytes @ 0x20000000)  returns TRUE (0004ms, 0701ms total)
T1EA4 000:908 JLINK_ReadReg(R15 (PC))  returns 0x20000000 (0000ms, 0697ms total)
T1EA4 000:908 JLINK_ClrBPEx(BPHandle = 0x00000007)  returns 0x00 (0000ms, 0697ms total)
T1EA4 000:908 JLINK_ReadReg(R0)  returns 0x00000000 (0000ms, 0697ms total)
T1EA4 000:909 JLINK_WriteReg(R0, 0x08000180)  returns 0x00 (0000ms, 0697ms total)
T1EA4 000:909 JLINK_WriteReg(R1, 0x00000080)  returns 0x00 (0000ms, 0697ms total)
T1EA4 000:909 JLINK_WriteReg(R2, 0x00000000)  returns 0x00 (0000ms, 0697ms total)
T1EA4 000:909 JLINK_WriteReg(R3, 0x00000000)  returns 0x00 (0000ms, 0697ms total)
T1EA4 000:909 JLINK_WriteReg(R4, 0x00000000)  returns 0x00 (0000ms, 0697ms total)
T1EA4 000:909 JLINK_WriteReg(R5, 0x00000000)  returns 0x00 (0000ms, 0697ms total)
T1EA4 000:909 JLINK_WriteReg(R6, 0x00000000)  returns 0x00 (0000ms, 0697ms total)
T1EA4 000:909 JLINK_WriteReg(R7, 0x00000000)  returns 0x00 (0000ms, 0697ms total)
T1EA4 000:909 JLINK_WriteReg(R8, 0x00000000)  returns 0x00 (0000ms, 0697ms total)
T1EA4 000:909 JLINK_WriteReg(R9, 0x2000013C)  returns 0x00 (0000ms, 0697ms total)
T1EA4 000:909 JLINK_WriteReg(R10, 0x00000000)  returns 0x00 (0000ms, 0697ms total)
T1EA4 000:909 JLINK_WriteReg(R11, 0x00000000)  returns 0x00 (0000ms, 0697ms total)
T1EA4 000:909 JLINK_WriteReg(R12, 0x00000000)  returns 0x00 (0000ms, 0697ms total)
T1EA4 000:909 JLINK_WriteReg(R13 (SP), 0x20001000)  returns 0x00 (0000ms, 0697ms total)
T1EA4 000:909 JLINK_WriteReg(R14, 0x20000001)  returns 0x00 (0000ms, 0697ms total)
T1EA4 000:909 JLINK_WriteReg(R15 (PC), 0x200000B0)  returns 0x00 (0000ms, 0697ms total)
T1EA4 000:909 JLINK_WriteReg(XPSR, 0x01000000)  returns 0x00 (0000ms, 0697ms total)
T1EA4 000:909 JLINK_WriteReg(MSP, 0x20001000)  returns 0x00 (0000ms, 0697ms total)
T1EA4 000:909 JLINK_WriteReg(PSP, 0x20001000)  returns 0x00 (0000ms, 0697ms total)
T1EA4 000:909 JLINK_WriteReg(CFBP, 0x00000000)  returns 0x00 (0000ms, 0697ms total)
T1EA4 000:909 JLINK_SetBPEx(Addr = 0x20000000, Type = 0xFFFFFFF2)  returns 0x00000008 (0000ms, 0697ms total)
T1EA4 000:909 JLINK_Go() -- CPU_ReadMem(4 bytes @ 0xE0001000) -- CPU_WriteMem(4 bytes @ 0xE0001000) (0004ms, 0701ms total)
T1EA4 000:913 JLINK_IsHalted() -- CPU_ReadMem(2 bytes @ 0x20000000)  returns TRUE (0005ms, 0706ms total)
T1EA4 000:918 JLINK_ReadReg(R15 (PC))  returns 0x20000000 (0000ms, 0701ms total)
T1EA4 000:918 JLINK_ClrBPEx(BPHandle = 0x00000008)  returns 0x00 (0000ms, 0701ms total)
T1EA4 000:918 JLINK_ReadReg(R0)  returns 0x00000001 (0000ms, 0701ms total)
T1EA4 000:918 JLINK_WriteReg(R0, 0x08000180)  returns 0x00 (0000ms, 0701ms total)
T1EA4 000:918 JLINK_WriteReg(R1, 0x00000080)  returns 0x00 (0000ms, 0701ms total)
T1EA4 000:918 JLINK_WriteReg(R2, 0x00000000)  returns 0x00 (0000ms, 0701ms total)
T1EA4 000:918 JLINK_WriteReg(R3, 0x00000000)  returns 0x00 (0000ms, 0701ms total)
T1EA4 000:918 JLINK_WriteReg(R4, 0x00000000)  returns 0x00 (0000ms, 0701ms total)
T1EA4 000:918 JLINK_WriteReg(R5, 0x00000000)  returns 0x00 (0000ms, 0701ms total)
T1EA4 000:918 JLINK_WriteReg(R6, 0x00000000)  returns 0x00 (0000ms, 0701ms total)
T1EA4 000:918 JLINK_WriteReg(R7, 0x00000000)  returns 0x00 (0000ms, 0701ms total)
T1EA4 000:918 JLINK_WriteReg(R8, 0x00000000)  returns 0x00 (0000ms, 0701ms total)
T1EA4 000:918 JLINK_WriteReg(R9, 0x2000013C)  returns 0x00 (0000ms, 0701ms total)
T1EA4 000:918 JLINK_WriteReg(R10, 0x00000000)  returns 0x00 (0000ms, 0701ms total)
T1EA4 000:918 JLINK_WriteReg(R11, 0x00000000)  returns 0x00 (0000ms, 0701ms total)
T1EA4 000:918 JLINK_WriteReg(R12, 0x00000000)  returns 0x00 (0000ms, 0701ms total)
T1EA4 000:918 JLINK_WriteReg(R13 (SP), 0x20001000)  returns 0x00 (0000ms, 0701ms total)
T1EA4 000:918 JLINK_WriteReg(R14, 0x20000001)  returns 0x00 (0000ms, 0701ms total)
T1EA4 000:918 JLINK_WriteReg(R15 (PC), 0x2000007A)  returns 0x00 (0000ms, 0701ms total)
T1EA4 000:918 JLINK_WriteReg(XPSR, 0x01000000)  returns 0x00 (0000ms, 0701ms total)
T1EA4 000:918 JLINK_WriteReg(MSP, 0x20001000)  returns 0x00 (0000ms, 0701ms total)
T1EA4 000:918 JLINK_WriteReg(PSP, 0x20001000)  returns 0x00 (0000ms, 0701ms total)
T1EA4 000:918 JLINK_WriteReg(CFBP, 0x00000000)  returns 0x00 (0000ms, 0701ms total)
T1EA4 000:918 JLINK_SetBPEx(Addr = 0x20000000, Type = 0xFFFFFFF2)  returns 0x00000009 (0000ms, 0701ms total)
T1EA4 000:918 JLINK_Go() -- CPU_ReadMem(4 bytes @ 0xE0001000) -- CPU_WriteMem(4 bytes @ 0xE0001000) (0004ms, 0705ms total)
T1EA4 000:922 JLINK_IsHalted()  returns FALSE (0001ms, 0706ms total)
T1EA4 000:940 JLINK_IsHalted() -- CPU_ReadMem(2 bytes @ 0x20000000)  returns TRUE (0004ms, 0709ms total)
T1EA4 000:944 JLINK_ReadReg(R15 (PC))  returns 0x20000000 (0000ms, 0705ms total)
T1EA4 000:944 JLINK_ClrBPEx(BPHandle = 0x00000009)  returns 0x00 (0000ms, 0705ms total)
T1EA4 000:944 JLINK_ReadReg(R0)  returns 0x00000000 (0000ms, 0705ms total)
T1EA4 000:946 JLINK_WriteReg(R0, 0x08000200)  returns 0x00 (0000ms, 0705ms total)
T1EA4 000:946 JLINK_WriteReg(R1, 0x00000080)  returns 0x00 (0000ms, 0705ms total)
T1EA4 000:946 JLINK_WriteReg(R2, 0x00000000)  returns 0x00 (0000ms, 0705ms total)
T1EA4 000:946 JLINK_WriteReg(R3, 0x00000000)  returns 0x00 (0000ms, 0705ms total)
T1EA4 000:946 JLINK_WriteReg(R4, 0x00000000)  returns 0x00 (0000ms, 0705ms total)
T1EA4 000:946 JLINK_WriteReg(R5, 0x00000000)  returns 0x00 (0000ms, 0705ms total)
T1EA4 000:946 JLINK_WriteReg(R6, 0x00000000)  returns 0x00 (0000ms, 0705ms total)
T1EA4 000:946 JLINK_WriteReg(R7, 0x00000000)  returns 0x00 (0000ms, 0705ms total)
T1EA4 000:946 JLINK_WriteReg(R8, 0x00000000)  returns 0x00 (0000ms, 0705ms total)
T1EA4 000:946 JLINK_WriteReg(R9, 0x2000013C)  returns 0x00 (0000ms, 0705ms total)
T1EA4 000:946 JLINK_WriteReg(R10, 0x00000000)  returns 0x00 (0000ms, 0705ms total)
T1EA4 000:946 JLINK_WriteReg(R11, 0x00000000)  returns 0x00 (0000ms, 0705ms total)
T1EA4 000:946 JLINK_WriteReg(R12, 0x00000000)  returns 0x00 (0000ms, 0705ms total)
T1EA4 000:946 JLINK_WriteReg(R13 (SP), 0x20001000)  returns 0x00 (0000ms, 0705ms total)
T1EA4 000:946 JLINK_WriteReg(R14, 0x20000001)  returns 0x00 (0000ms, 0705ms total)
T1EA4 000:946 JLINK_WriteReg(R15 (PC), 0x200000B0)  returns 0x00 (0000ms, 0705ms total)
T1EA4 000:946 JLINK_WriteReg(XPSR, 0x01000000)  returns 0x00 (0000ms, 0705ms total)
T1EA4 000:946 JLINK_WriteReg(MSP, 0x20001000)  returns 0x00 (0000ms, 0705ms total)
T1EA4 000:946 JLINK_WriteReg(PSP, 0x20001000)  returns 0x00 (0000ms, 0705ms total)
T1EA4 000:946 JLINK_WriteReg(CFBP, 0x00000000)  returns 0x00 (0000ms, 0705ms total)
T1EA4 000:946 JLINK_SetBPEx(Addr = 0x20000000, Type = 0xFFFFFFF2)  returns 0x0000000A (0000ms, 0705ms total)
T1EA4 000:946 JLINK_Go() -- CPU_ReadMem(4 bytes @ 0xE0001000) -- CPU_WriteMem(4 bytes @ 0xE0001000) (0004ms, 0709ms total)
T1EA4 000:950 JLINK_IsHalted() -- CPU_ReadMem(2 bytes @ 0x20000000)  returns TRUE (0005ms, 0714ms total)
T1EA4 000:955 JLINK_ReadReg(R15 (PC))  returns 0x20000000 (0000ms, 0709ms total)
T1EA4 000:955 JLINK_ClrBPEx(BPHandle = 0x0000000A)  returns 0x00 (0000ms, 0709ms total)
T1EA4 000:955 JLINK_ReadReg(R0)  returns 0x00000001 (0000ms, 0709ms total)
T1EA4 000:955 JLINK_WriteReg(R0, 0x08000200)  returns 0x00 (0000ms, 0709ms total)
T1EA4 000:955 JLINK_WriteReg(R1, 0x00000080)  returns 0x00 (0000ms, 0709ms total)
T1EA4 000:955 JLINK_WriteReg(R2, 0x00000000)  returns 0x00 (0000ms, 0709ms total)
T1EA4 000:955 JLINK_WriteReg(R3, 0x00000000)  returns 0x00 (0000ms, 0709ms total)
T1EA4 000:955 JLINK_WriteReg(R4, 0x00000000)  returns 0x00 (0000ms, 0709ms total)
T1EA4 000:955 JLINK_WriteReg(R5, 0x00000000)  returns 0x00 (0000ms, 0709ms total)
T1EA4 000:955 JLINK_WriteReg(R6, 0x00000000)  returns 0x00 (0000ms, 0709ms total)
T1EA4 000:955 JLINK_WriteReg(R7, 0x00000000)  returns 0x00 (0000ms, 0709ms total)
T1EA4 000:955 JLINK_WriteReg(R8, 0x00000000)  returns 0x00 (0000ms, 0709ms total)
T1EA4 000:955 JLINK_WriteReg(R9, 0x2000013C)  returns 0x00 (0000ms, 0709ms total)
T1EA4 000:955 JLINK_WriteReg(R10, 0x00000000)  returns 0x00 (0000ms, 0709ms total)
T1EA4 000:955 JLINK_WriteReg(R11, 0x00000000)  returns 0x00 (0000ms, 0709ms total)
T1EA4 000:955 JLINK_WriteReg(R12, 0x00000000)  returns 0x00 (0000ms, 0709ms total)
T1EA4 000:955 JLINK_WriteReg(R13 (SP), 0x20001000)  returns 0x00 (0000ms, 0709ms total)
T1EA4 000:955 JLINK_WriteReg(R14, 0x20000001)  returns 0x00 (0000ms, 0709ms total)
T1EA4 000:955 JLINK_WriteReg(R15 (PC), 0x2000007A)  returns 0x00 (0000ms, 0709ms total)
T1EA4 000:955 JLINK_WriteReg(XPSR, 0x01000000)  returns 0x00 (0000ms, 0709ms total)
T1EA4 000:955 JLINK_WriteReg(MSP, 0x20001000)  returns 0x00 (0000ms, 0709ms total)
T1EA4 000:955 JLINK_WriteReg(PSP, 0x20001000)  returns 0x00 (0000ms, 0709ms total)
T1EA4 000:955 JLINK_WriteReg(CFBP, 0x00000000)  returns 0x00 (0000ms, 0709ms total)
T1EA4 000:955 JLINK_SetBPEx(Addr = 0x20000000, Type = 0xFFFFFFF2)  returns 0x0000000B (0000ms, 0709ms total)
T1EA4 000:955 JLINK_Go() -- CPU_ReadMem(4 bytes @ 0xE0001000) -- CPU_WriteMem(4 bytes @ 0xE0001000) (0004ms, 0713ms total)
T1EA4 000:959 JLINK_IsHalted()  returns FALSE (0000ms, 0713ms total)
T1EA4 000:962 JLINK_IsHalted() -- CPU_ReadMem(2 bytes @ 0x20000000)  returns TRUE (0004ms, 0717ms total)
T1EA4 000:966 JLINK_ReadReg(R15 (PC))  returns 0x20000000 (0000ms, 0713ms total)
T1EA4 000:966 JLINK_ClrBPEx(BPHandle = 0x0000000B)  returns 0x00 (0000ms, 0713ms total)
T1EA4 000:966 JLINK_ReadReg(R0)  returns 0x00000000 (0000ms, 0713ms total)
T1EA4 000:967 JLINK_WriteReg(R0, 0x08000280)  returns 0x00 (0000ms, 0713ms total)
T1EA4 000:967 JLINK_WriteReg(R1, 0x00000080)  returns 0x00 (0000ms, 0713ms total)
T1EA4 000:967 JLINK_WriteReg(R2, 0x00000000)  returns 0x00 (0000ms, 0713ms total)
T1EA4 000:967 JLINK_WriteReg(R3, 0x00000000)  returns 0x00 (0000ms, 0713ms total)
T1EA4 000:967 JLINK_WriteReg(R4, 0x00000000)  returns 0x00 (0000ms, 0713ms total)
T1EA4 000:967 JLINK_WriteReg(R5, 0x00000000)  returns 0x00 (0000ms, 0713ms total)
T1EA4 000:967 JLINK_WriteReg(R6, 0x00000000)  returns 0x00 (0000ms, 0713ms total)
T1EA4 000:967 JLINK_WriteReg(R7, 0x00000000)  returns 0x00 (0000ms, 0713ms total)
T1EA4 000:967 JLINK_WriteReg(R8, 0x00000000)  returns 0x00 (0000ms, 0713ms total)
T1EA4 000:967 JLINK_WriteReg(R9, 0x2000013C)  returns 0x00 (0000ms, 0713ms total)
T1EA4 000:967 JLINK_WriteReg(R10, 0x00000000)  returns 0x00 (0000ms, 0713ms total)
T1EA4 000:967 JLINK_WriteReg(R11, 0x00000000)  returns 0x00 (0000ms, 0713ms total)
T1EA4 000:967 JLINK_WriteReg(R12, 0x00000000)  returns 0x00 (0000ms, 0713ms total)
T1EA4 000:967 JLINK_WriteReg(R13 (SP), 0x20001000)  returns 0x00 (0000ms, 0713ms total)
T1EA4 000:967 JLINK_WriteReg(R14, 0x20000001)  returns 0x00 (0000ms, 0713ms total)
T1EA4 000:967 JLINK_WriteReg(R15 (PC), 0x200000B0)  returns 0x00 (0000ms, 0713ms total)
T1EA4 000:967 JLINK_WriteReg(XPSR, 0x01000000)  returns 0x00 (0000ms, 0713ms total)
T1EA4 000:967 JLINK_WriteReg(MSP, 0x20001000)  returns 0x00 (0000ms, 0713ms total)
T1EA4 000:967 JLINK_WriteReg(PSP, 0x20001000)  returns 0x00 (0000ms, 0713ms total)
T1EA4 000:967 JLINK_WriteReg(CFBP, 0x00000000)  returns 0x00 (0000ms, 0713ms total)
T1EA4 000:967 JLINK_SetBPEx(Addr = 0x20000000, Type = 0xFFFFFFF2)  returns 0x0000000C (0000ms, 0713ms total)
T1EA4 000:967 JLINK_Go() -- CPU_ReadMem(4 bytes @ 0xE0001000) -- CPU_WriteMem(4 bytes @ 0xE0001000) (0004ms, 0717ms total)
T1EA4 000:971 JLINK_IsHalted() -- CPU_ReadMem(2 bytes @ 0x20000000)  returns TRUE (0005ms, 0722ms total)
T1EA4 000:976 JLINK_ReadReg(R15 (PC))  returns 0x20000000 (0000ms, 0717ms total)
T1EA4 000:976 JLINK_ClrBPEx(BPHandle = 0x0000000C)  returns 0x00 (0000ms, 0717ms total)
T1EA4 000:976 JLINK_ReadReg(R0)  returns 0x00000001 (0000ms, 0717ms total)
T1EA4 000:976 JLINK_WriteReg(R0, 0x08000280)  returns 0x00 (0000ms, 0717ms total)
T1EA4 000:976 JLINK_WriteReg(R1, 0x00000080)  returns 0x00 (0000ms, 0717ms total)
T1EA4 000:976 JLINK_WriteReg(R2, 0x00000000)  returns 0x00 (0000ms, 0717ms total)
T1EA4 000:976 JLINK_WriteReg(R3, 0x00000000)  returns 0x00 (0000ms, 0717ms total)
T1EA4 000:976 JLINK_WriteReg(R4, 0x00000000)  returns 0x00 (0000ms, 0717ms total)
T1EA4 000:976 JLINK_WriteReg(R5, 0x00000000)  returns 0x00 (0000ms, 0717ms total)
T1EA4 000:976 JLINK_WriteReg(R6, 0x00000000)  returns 0x00 (0000ms, 0717ms total)
T1EA4 000:976 JLINK_WriteReg(R7, 0x00000000)  returns 0x00 (0000ms, 0717ms total)
T1EA4 000:976 JLINK_WriteReg(R8, 0x00000000)  returns 0x00 (0000ms, 0717ms total)
T1EA4 000:976 JLINK_WriteReg(R9, 0x2000013C)  returns 0x00 (0000ms, 0717ms total)
T1EA4 000:976 JLINK_WriteReg(R10, 0x00000000)  returns 0x00 (0000ms, 0717ms total)
T1EA4 000:976 JLINK_WriteReg(R11, 0x00000000)  returns 0x00 (0000ms, 0717ms total)
T1EA4 000:976 JLINK_WriteReg(R12, 0x00000000)  returns 0x00 (0000ms, 0717ms total)
T1EA4 000:976 JLINK_WriteReg(R13 (SP), 0x20001000)  returns 0x00 (0000ms, 0717ms total)
T1EA4 000:976 JLINK_WriteReg(R14, 0x20000001)  returns 0x00 (0000ms, 0717ms total)
T1EA4 000:976 JLINK_WriteReg(R15 (PC), 0x2000007A)  returns 0x00 (0000ms, 0717ms total)
T1EA4 000:976 JLINK_WriteReg(XPSR, 0x01000000)  returns 0x00 (0000ms, 0717ms total)
T1EA4 000:976 JLINK_WriteReg(MSP, 0x20001000)  returns 0x00 (0000ms, 0717ms total)
T1EA4 000:976 JLINK_WriteReg(PSP, 0x20001000)  returns 0x00 (0000ms, 0717ms total)
T1EA4 000:976 JLINK_WriteReg(CFBP, 0x00000000)  returns 0x00 (0000ms, 0717ms total)
T1EA4 000:976 JLINK_SetBPEx(Addr = 0x20000000, Type = 0xFFFFFFF2)  returns 0x0000000D (0000ms, 0717ms total)
T1EA4 000:976 JLINK_Go() -- CPU_ReadMem(4 bytes @ 0xE0001000) -- CPU_WriteMem(4 bytes @ 0xE0001000) (0003ms, 0720ms total)
T1EA4 000:979 JLINK_IsHalted()  returns FALSE (0001ms, 0721ms total)
T1EA4 000:985 JLINK_IsHalted() -- CPU_ReadMem(2 bytes @ 0x20000000)  returns TRUE (0004ms, 0724ms total)
T1EA4 000:989 JLINK_ReadReg(R15 (PC))  returns 0x20000000 (0000ms, 0720ms total)
T1EA4 000:989 JLINK_ClrBPEx(BPHandle = 0x0000000D)  returns 0x00 (0000ms, 0720ms total)
T1EA4 000:989 JLINK_ReadReg(R0)  returns 0x00000000 (0000ms, 0720ms total)
T1EA4 000:990 JLINK_WriteReg(R0, 0x08000300)  returns 0x00 (0000ms, 0720ms total)
T1EA4 000:990 JLINK_WriteReg(R1, 0x00000080)  returns 0x00 (0000ms, 0720ms total)
T1EA4 000:990 JLINK_WriteReg(R2, 0x00000000)  returns 0x00 (0000ms, 0720ms total)
T1EA4 000:990 JLINK_WriteReg(R3, 0x00000000)  returns 0x00 (0000ms, 0720ms total)
T1EA4 000:990 JLINK_WriteReg(R4, 0x00000000)  returns 0x00 (0000ms, 0720ms total)
T1EA4 000:990 JLINK_WriteReg(R5, 0x00000000)  returns 0x00 (0000ms, 0720ms total)
T1EA4 000:990 JLINK_WriteReg(R6, 0x00000000)  returns 0x00 (0000ms, 0720ms total)
T1EA4 000:990 JLINK_WriteReg(R7, 0x00000000)  returns 0x00 (0000ms, 0720ms total)
T1EA4 000:990 JLINK_WriteReg(R8, 0x00000000)  returns 0x00 (0000ms, 0720ms total)
T1EA4 000:990 JLINK_WriteReg(R9, 0x2000013C)  returns 0x00 (0000ms, 0720ms total)
T1EA4 000:990 JLINK_WriteReg(R10, 0x00000000)  returns 0x00 (0000ms, 0720ms total)
T1EA4 000:990 JLINK_WriteReg(R11, 0x00000000)  returns 0x00 (0000ms, 0720ms total)
T1EA4 000:990 JLINK_WriteReg(R12, 0x00000000)  returns 0x00 (0000ms, 0720ms total)
T1EA4 000:990 JLINK_WriteReg(R13 (SP), 0x20001000)  returns 0x00 (0000ms, 0720ms total)
T1EA4 000:990 JLINK_WriteReg(R14, 0x20000001)  returns 0x00 (0000ms, 0720ms total)
T1EA4 000:990 JLINK_WriteReg(R15 (PC), 0x200000B0)  returns 0x00 (0000ms, 0720ms total)
T1EA4 000:990 JLINK_WriteReg(XPSR, 0x01000000)  returns 0x00 (0000ms, 0720ms total)
T1EA4 000:990 JLINK_WriteReg(MSP, 0x20001000)  returns 0x00 (0000ms, 0720ms total)
T1EA4 000:990 JLINK_WriteReg(PSP, 0x20001000)  returns 0x00 (0000ms, 0720ms total)
T1EA4 000:990 JLINK_WriteReg(CFBP, 0x00000000)  returns 0x00 (0000ms, 0720ms total)
T1EA4 000:990 JLINK_SetBPEx(Addr = 0x20000000, Type = 0xFFFFFFF2)  returns 0x0000000E (0000ms, 0720ms total)
T1EA4 000:990 JLINK_Go() -- CPU_ReadMem(4 bytes @ 0xE0001000) -- CPU_WriteMem(4 bytes @ 0xE0001000) (0004ms, 0724ms total)
T1EA4 000:994 JLINK_IsHalted() -- CPU_ReadMem(2 bytes @ 0x20000000)  returns TRUE (0005ms, 0729ms total)
T1EA4 000:999 JLINK_ReadReg(R15 (PC))  returns 0x20000000 (0000ms, 0724ms total)
T1EA4 000:999 JLINK_ClrBPEx(BPHandle = 0x0000000E)  returns 0x00 (0000ms, 0724ms total)
T1EA4 000:999 JLINK_ReadReg(R0)  returns 0x00000001 (0000ms, 0724ms total)
T1EA4 000:999 JLINK_WriteReg(R0, 0x08000300)  returns 0x00 (0000ms, 0724ms total)
T1EA4 000:999 JLINK_WriteReg(R1, 0x00000080)  returns 0x00 (0000ms, 0724ms total)
T1EA4 000:999 JLINK_WriteReg(R2, 0x00000000)  returns 0x00 (0000ms, 0724ms total)
T1EA4 000:999 JLINK_WriteReg(R3, 0x00000000)  returns 0x00 (0000ms, 0724ms total)
T1EA4 000:999 JLINK_WriteReg(R4, 0x00000000)  returns 0x00 (0000ms, 0724ms total)
T1EA4 000:999 JLINK_WriteReg(R5, 0x00000000)  returns 0x00 (0000ms, 0724ms total)
T1EA4 000:999 JLINK_WriteReg(R6, 0x00000000)  returns 0x00 (0000ms, 0724ms total)
T1EA4 000:999 JLINK_WriteReg(R7, 0x00000000)  returns 0x00 (0000ms, 0724ms total)
T1EA4 000:999 JLINK_WriteReg(R8, 0x00000000)  returns 0x00 (0000ms, 0724ms total)
T1EA4 000:999 JLINK_WriteReg(R9, 0x2000013C)  returns 0x00 (0000ms, 0724ms total)
T1EA4 000:999 JLINK_WriteReg(R10, 0x00000000)  returns 0x00 (0000ms, 0724ms total)
T1EA4 000:999 JLINK_WriteReg(R11, 0x00000000)  returns 0x00 (0000ms, 0724ms total)
T1EA4 000:999 JLINK_WriteReg(R12, 0x00000000)  returns 0x00 (0000ms, 0724ms total)
T1EA4 000:999 JLINK_WriteReg(R13 (SP), 0x20001000)  returns 0x00 (0000ms, 0724ms total)
T1EA4 000:999 JLINK_WriteReg(R14, 0x20000001)  returns 0x00 (0000ms, 0724ms total)
T1EA4 000:999 JLINK_WriteReg(R15 (PC), 0x2000007A)  returns 0x00 (0000ms, 0724ms total)
T1EA4 000:999 JLINK_WriteReg(XPSR, 0x01000000)  returns 0x00 (0000ms, 0724ms total)
T1EA4 000:999 JLINK_WriteReg(MSP, 0x20001000)  returns 0x00 (0000ms, 0724ms total)
T1EA4 000:999 JLINK_WriteReg(PSP, 0x20001000)  returns 0x00 (0000ms, 0724ms total)
T1EA4 000:999 JLINK_WriteReg(CFBP, 0x00000000)  returns 0x00 (0000ms, 0724ms total)
T1EA4 000:999 JLINK_SetBPEx(Addr = 0x20000000, Type = 0xFFFFFFF2)  returns 0x0000000F (0000ms, 0724ms total)
T1EA4 000:999 JLINK_Go() -- CPU_ReadMem(4 bytes @ 0xE0001000) -- CPU_WriteMem(4 bytes @ 0xE0001000) (0003ms, 0727ms total)
T1EA4 001:002 JLINK_IsHalted()  returns FALSE (0002ms, 0729ms total)
T1EA4 001:016 JLINK_IsHalted() -- CPU_ReadMem(2 bytes @ 0x20000000)  returns TRUE (0004ms, 0731ms total)
T1EA4 001:020 JLINK_ReadReg(R15 (PC))  returns 0x20000000 (0000ms, 0727ms total)
T1EA4 001:020 JLINK_ClrBPEx(BPHandle = 0x0000000F)  returns 0x00 (0000ms, 0727ms total)
T1EA4 001:020 JLINK_ReadReg(R0)  returns 0x00000000 (0000ms, 0727ms total)
T1EA4 001:021 JLINK_WriteReg(R0, 0x08000380)  returns 0x00 (0000ms, 0727ms total)
T1EA4 001:021 JLINK_WriteReg(R1, 0x00000080)  returns 0x00 (0000ms, 0727ms total)
T1EA4 001:021 JLINK_WriteReg(R2, 0x00000000)  returns 0x00 (0000ms, 0727ms total)
T1EA4 001:021 JLINK_WriteReg(R3, 0x00000000)  returns 0x00 (0000ms, 0727ms total)
T1EA4 001:021 JLINK_WriteReg(R4, 0x00000000)  returns 0x00 (0000ms, 0727ms total)
T1EA4 001:021 JLINK_WriteReg(R5, 0x00000000)  returns 0x00 (0000ms, 0727ms total)
T1EA4 001:021 JLINK_WriteReg(R6, 0x00000000)  returns 0x00 (0000ms, 0727ms total)
T1EA4 001:021 JLINK_WriteReg(R7, 0x00000000)  returns 0x00 (0000ms, 0727ms total)
T1EA4 001:021 JLINK_WriteReg(R8, 0x00000000)  returns 0x00 (0000ms, 0727ms total)
T1EA4 001:021 JLINK_WriteReg(R9, 0x2000013C)  returns 0x00 (0000ms, 0727ms total)
T1EA4 001:021 JLINK_WriteReg(R10, 0x00000000)  returns 0x00 (0000ms, 0727ms total)
T1EA4 001:021 JLINK_WriteReg(R11, 0x00000000)  returns 0x00 (0000ms, 0727ms total)
T1EA4 001:021 JLINK_WriteReg(R12, 0x00000000)  returns 0x00 (0000ms, 0727ms total)
T1EA4 001:021 JLINK_WriteReg(R13 (SP), 0x20001000)  returns 0x00 (0000ms, 0727ms total)
T1EA4 001:021 JLINK_WriteReg(R14, 0x20000001)  returns 0x00 (0000ms, 0727ms total)
T1EA4 001:021 JLINK_WriteReg(R15 (PC), 0x200000B0)  returns 0x00 (0000ms, 0727ms total)
T1EA4 001:021 JLINK_WriteReg(XPSR, 0x01000000)  returns 0x00 (0000ms, 0727ms total)
T1EA4 001:021 JLINK_WriteReg(MSP, 0x20001000)  returns 0x00 (0000ms, 0727ms total)
T1EA4 001:021 JLINK_WriteReg(PSP, 0x20001000)  returns 0x00 (0000ms, 0727ms total)
T1EA4 001:021 JLINK_WriteReg(CFBP, 0x00000000)  returns 0x00 (0000ms, 0727ms total)
T1EA4 001:021 JLINK_SetBPEx(Addr = 0x20000000, Type = 0xFFFFFFF2)  returns 0x00000010 (0000ms, 0727ms total)
T1EA4 001:021 JLINK_Go() -- CPU_ReadMem(4 bytes @ 0xE0001000) -- CPU_WriteMem(4 bytes @ 0xE0001000) (0004ms, 0731ms total)
T1EA4 001:025 JLINK_IsHalted() -- CPU_ReadMem(2 bytes @ 0x20000000)  returns TRUE (0005ms, 0736ms total)
T1EA4 001:030 JLINK_ReadReg(R15 (PC))  returns 0x20000000 (0000ms, 0731ms total)
T1EA4 001:030 JLINK_ClrBPEx(BPHandle = 0x00000010)  returns 0x00 (0000ms, 0731ms total)
T1EA4 001:030 JLINK_ReadReg(R0)  returns 0x00000001 (0000ms, 0731ms total)
T1EA4 001:030 JLINK_WriteReg(R0, 0x08000380)  returns 0x00 (0000ms, 0731ms total)
T1EA4 001:030 JLINK_WriteReg(R1, 0x00000080)  returns 0x00 (0000ms, 0731ms total)
T1EA4 001:030 JLINK_WriteReg(R2, 0x00000000)  returns 0x00 (0000ms, 0731ms total)
T1EA4 001:030 JLINK_WriteReg(R3, 0x00000000)  returns 0x00 (0000ms, 0731ms total)
T1EA4 001:030 JLINK_WriteReg(R4, 0x00000000)  returns 0x00 (0000ms, 0731ms total)
T1EA4 001:030 JLINK_WriteReg(R5, 0x00000000)  returns 0x00 (0000ms, 0731ms total)
T1EA4 001:030 JLINK_WriteReg(R6, 0x00000000)  returns 0x00 (0000ms, 0731ms total)
T1EA4 001:030 JLINK_WriteReg(R7, 0x00000000)  returns 0x00 (0000ms, 0731ms total)
T1EA4 001:030 JLINK_WriteReg(R8, 0x00000000)  returns 0x00 (0000ms, 0731ms total)
T1EA4 001:030 JLINK_WriteReg(R9, 0x2000013C)  returns 0x00 (0000ms, 0731ms total)
T1EA4 001:030 JLINK_WriteReg(R10, 0x00000000)  returns 0x00 (0000ms, 0731ms total)
T1EA4 001:030 JLINK_WriteReg(R11, 0x00000000)  returns 0x00 (0000ms, 0731ms total)
T1EA4 001:030 JLINK_WriteReg(R12, 0x00000000)  returns 0x00 (0000ms, 0731ms total)
T1EA4 001:030 JLINK_WriteReg(R13 (SP), 0x20001000)  returns 0x00 (0000ms, 0731ms total)
T1EA4 001:030 JLINK_WriteReg(R14, 0x20000001)  returns 0x00 (0000ms, 0731ms total)
T1EA4 001:030 JLINK_WriteReg(R15 (PC), 0x2000007A)  returns 0x00 (0000ms, 0731ms total)
T1EA4 001:030 JLINK_WriteReg(XPSR, 0x01000000)  returns 0x00 (0000ms, 0731ms total)
T1EA4 001:030 JLINK_WriteReg(MSP, 0x20001000)  returns 0x00 (0000ms, 0731ms total)
T1EA4 001:030 JLINK_WriteReg(PSP, 0x20001000)  returns 0x00 (0000ms, 0731ms total)
T1EA4 001:030 JLINK_WriteReg(CFBP, 0x00000000)  returns 0x00 (0000ms, 0731ms total)
T1EA4 001:030 JLINK_SetBPEx(Addr = 0x20000000, Type = 0xFFFFFFF2)  returns 0x00000011 (0000ms, 0731ms total)
T1EA4 001:030 JLINK_Go() -- CPU_ReadMem(4 bytes @ 0xE0001000) -- CPU_WriteMem(4 bytes @ 0xE0001000) (0003ms, 0734ms total)
T1EA4 001:033 JLINK_IsHalted()  returns FALSE (0001ms, 0735ms total)
T1EA4 001:053 JLINK_IsHalted() -- CPU_ReadMem(2 bytes @ 0x20000000)  returns TRUE (0004ms, 0738ms total)
T1EA4 001:057 JLINK_ReadReg(R15 (PC))  returns 0x20000000 (0000ms, 0734ms total)
T1EA4 001:057 JLINK_ClrBPEx(BPHandle = 0x00000011)  returns 0x00 (0000ms, 0734ms total)
T1EA4 001:057 JLINK_ReadReg(R0)  returns 0x00000000 (0000ms, 0734ms total)
T1EA4 001:058 JLINK_WriteReg(R0, 0x08000400)  returns 0x00 (0000ms, 0734ms total)
T1EA4 001:058 JLINK_WriteReg(R1, 0x00000080)  returns 0x00 (0000ms, 0734ms total)
T1EA4 001:058 JLINK_WriteReg(R2, 0x00000000)  returns 0x00 (0000ms, 0734ms total)
T1EA4 001:058 JLINK_WriteReg(R3, 0x00000000)  returns 0x00 (0000ms, 0734ms total)
T1EA4 001:058 JLINK_WriteReg(R4, 0x00000000)  returns 0x00 (0000ms, 0734ms total)
T1EA4 001:058 JLINK_WriteReg(R5, 0x00000000)  returns 0x00 (0000ms, 0734ms total)
T1EA4 001:058 JLINK_WriteReg(R6, 0x00000000)  returns 0x00 (0000ms, 0734ms total)
T1EA4 001:058 JLINK_WriteReg(R7, 0x00000000)  returns 0x00 (0000ms, 0734ms total)
T1EA4 001:058 JLINK_WriteReg(R8, 0x00000000)  returns 0x00 (0000ms, 0734ms total)
T1EA4 001:058 JLINK_WriteReg(R9, 0x2000013C)  returns 0x00 (0000ms, 0734ms total)
T1EA4 001:058 JLINK_WriteReg(R10, 0x00000000)  returns 0x00 (0000ms, 0734ms total)
T1EA4 001:058 JLINK_WriteReg(R11, 0x00000000)  returns 0x00 (0000ms, 0734ms total)
T1EA4 001:058 JLINK_WriteReg(R12, 0x00000000)  returns 0x00 (0000ms, 0734ms total)
T1EA4 001:058 JLINK_WriteReg(R13 (SP), 0x20001000)  returns 0x00 (0000ms, 0734ms total)
T1EA4 001:058 JLINK_WriteReg(R14, 0x20000001)  returns 0x00 (0000ms, 0734ms total)
T1EA4 001:058 JLINK_WriteReg(R15 (PC), 0x200000B0)  returns 0x00 (0000ms, 0734ms total)
T1EA4 001:058 JLINK_WriteReg(XPSR, 0x01000000)  returns 0x00 (0000ms, 0734ms total)
T1EA4 001:058 JLINK_WriteReg(MSP, 0x20001000)  returns 0x00 (0000ms, 0734ms total)
T1EA4 001:058 JLINK_WriteReg(PSP, 0x20001000)  returns 0x00 (0000ms, 0734ms total)
T1EA4 001:058 JLINK_WriteReg(CFBP, 0x00000000)  returns 0x00 (0000ms, 0734ms total)
T1EA4 001:058 JLINK_SetBPEx(Addr = 0x20000000, Type = 0xFFFFFFF2)  returns 0x00000012 (0000ms, 0734ms total)
T1EA4 001:058 JLINK_Go() -- CPU_ReadMem(4 bytes @ 0xE0001000) -- CPU_WriteMem(4 bytes @ 0xE0001000) (0004ms, 0738ms total)
T1EA4 001:062 JLINK_IsHalted() -- CPU_ReadMem(2 bytes @ 0x20000000)  returns TRUE (0004ms, 0742ms total)
T1EA4 001:066 JLINK_ReadReg(R15 (PC))  returns 0x20000000 (0000ms, 0738ms total)
T1EA4 001:066 JLINK_ClrBPEx(BPHandle = 0x00000012)  returns 0x00 (0000ms, 0738ms total)
T1EA4 001:066 JLINK_ReadReg(R0)  returns 0x00000001 (0000ms, 0738ms total)
T1EA4 001:066 JLINK_WriteReg(R0, 0x08000400)  returns 0x00 (0000ms, 0738ms total)
T1EA4 001:066 JLINK_WriteReg(R1, 0x00000080)  returns 0x00 (0000ms, 0738ms total)
T1EA4 001:066 JLINK_WriteReg(R2, 0x00000000)  returns 0x00 (0000ms, 0738ms total)
T1EA4 001:066 JLINK_WriteReg(R3, 0x00000000)  returns 0x00 (0000ms, 0738ms total)
T1EA4 001:066 JLINK_WriteReg(R4, 0x00000000)  returns 0x00 (0000ms, 0738ms total)
T1EA4 001:066 JLINK_WriteReg(R5, 0x00000000)  returns 0x00 (0000ms, 0738ms total)
